# seq_max=147 baud=9600 parity=8N1 gap=5000us capture=on A.bytes=9251 A.frames=106 A.mod=0 A.rxerr=0 B.bytes=7651 B.frames=41 B.mod=0 B.rxerr=0 rssi=-52 ip=REDACTED-IP armed=0 addr=0x67 tmpl1=0 tmpl2=0 poll=0 tx=0 bridge=passthru rules=0 pulse_rules=0 pulse_remaining=0 scramble=0 nonce=0xACE0 fw="May 30 2026 22:49:22"
A 20 1109.650000 +493021us 8: 66 03 00 7E 00 7A AC 26 |f..~.z.&|
B 21 1109.667000 +241001us 249: 66 03 F4 00 00 00 E6 00 E6 00 D2 00 D2 00 E1 00 D2 00 D7 00 D7 00 D7 00 DC 00 E6 00 F0 00 F0 00 F0 00 E6 00 E6 01 DE 02 0E 02 11 02 0A 02 1A 02 11 02 0A 02 04 00 1E 40 1E 40 1E 40 1E 40 1E 40 1E 00 00 00 00 00 C5 00 DC 00 D4 00 C7 00 EF 75 30 75 30 75 30 75 30 75 30 75 30 75 30 75 30 75 30 75 30 75 30 01 00 01 00 01 00 01 00 01 00 00 00 00 00 00 00 00 00 00 00 00 00 00 00 00 00 00 00 00 00 00 00 01 DE 75 30 75 30 02 3F 02 17 01 F6 02 5A 01 E6 75 30 75 30 75 30 75 30 75 30 75 30 75 30 75 30 75 30 75 30 75 30 75 30 75 30 75 30 75 30 75 30 75 30 75 30 75 30 75 30 75 30 75 30 75 30 75 30 75 30 75 30 75 30 00 02 00 02 00 02 00 02 00 02 00 00 00 00 00 00 00 00 00 00 00 00 00 00 00 00 00 00 00 00 00 00 00 07 29 28 03 20 00 3C FF 42 00 24 53 7B |f......................................................@.@.@.@.@...............u0u0u0u0u0u0u0u0u0u0u0..................................u0u0.?.....Z..u0u0u0u0u0u0u0u0u0u0u0u0u0u0u0u0u0u0u0u0u0u0u0u0u0u0u0..................................)(. .<.B.$S{|
A 22 1110.150000 +493005us 8: 67 03 00 02 00 7C EC 2D |g....|.-|
A 23 1110.650000 +493023us 8: 68 03 00 02 00 7C EC D2 |h....|..|
A 24 1111.150000 +493023us 253: 00 10 00 04 00 7A F4 03 2B 01 18 96 49 18 04 05 F3 00 00 80 82 59 04 00 EB 00 D5 00 00 00 00 75 30 00 D5 01 4E 00 18 00 00 17 08 0A 05 34 BE 20 02 00 1E 04 9F 00 4E 00 41 75 30 75 30 01 9B 00 51 00 25 00 59 08 77 03 3E 05 DE 75 30 75 30 00 2C 00 3E 00 54 04 7E 05 46 05 DC 00 0A 00 00 01 76 03 DE 00 00 CC EF 00 14 01 12 01 FE 00 E6 00 EB 01 04 00 C8 00 B4 01 18 FB 02 FB 02 00 0F 00 1E D9 32 00 00 C8 23 02 26 00 32 01 2C 00 1D 00 D5 75 30 75 30 01 00 01 00 01 00 01 00 01 00 01 00 00 00 00 3F 00 3F 00 00 00 01 29 09 29 09 29 09 29 09 29 09 29 09 00 01 00 01 00 D5 00 C5 00 DC 00 D4 00 C7 00 EF 00 D5 00 D5 00 3C 00 00 00 00 00 00 00 00 00 00 00 64 00 64 00 01 00 07 00 08 00 09 00 0A 00 0B 00 01 00 01 64 00 64 00 64 00 64 00 64 00 64 00 64 00 64 00 46 AD |.....z..+...I........Y.........u0...N........4. ......N.Au0u0...Q.%.Y.w.>..u0u0.,.>.T.~.F.......v.................................2...#.&.2.,....u0u0...............?.?....).).).).).)......................<...........d.d................d.d.d.d.d.d.d.d.F.|
A 25 1111.650000 +238020us 255: 00 10 00 7E 00 7B F6 00 00 00 E6 00 E6 00 D2 00 D2 00 E1 00 D2 00 D7 00 D7 00 D7 00 DC 00 E6 00 F0 00 F0 00 F0 00 E6 00 E6 01 DE 02 0E 02 11 02 0A 02 1A 02 11 02 0A 02 04 00 1E 40 1E 40 1E 40 1E 40 1E 40 1E 00 00 00 00 00 C5 00 DC 00 D4 00 C7 00 EF 75 30 75 30 75 30 75 30 75 30 75 30 75 30 75 30 75 30 75 30 75 30 01 00 01 00 01 00 01 00 01 00 00 00 00 00 00 00 00 00 00 00 00 00 00 00 00 00 00 00 00 00 00 00 01 DE 75 30 75 30 02 3F 02 17 01 F6 02 5A 01 E6 75 30 75 30 75 30 75 30 75 30 75 30 75 30 75 30 75 30 75 30 75 30 75 30 75 30 75 30 75 30 75 30 75 30 75 30 75 30 75 30 75 30 75 30 75 30 75 30 75 30 75 30 75 30 00 02 00 02 00 02 00 02 00 02 00 00 00 00 00 00 00 00 00 00 00 00 00 00 00 00 00 00 00 00 00 00 00 07 29 28 03 20 00 3C FF 42 00 24 03 78 EF 15 |...~.{.....................................................@.@.@.@.@...............u0u0u0u0u0u0u0u0u0u0u0..................................u0u0.?.....Z..u0u0u0u0u0u0u0u0u0u0u0u0u0u0u0u0u0u0u0u0u0u0u0u0u0u0u0..................................)(. .<.B.$.x..|
A 26 1112.149000 +236024us 8: 66 03 00 02 00 7C ED FC |f....|..|
B 27 1112.165000 +2241001us 16: 66 03 F8 00 6E 26 23 03 2B 01 18 96 49 18 04 05 |f...n&#.+...I...|
B 28 1112.186000 +6236us 237: F3 00 00 80 82 59 04 00 EB 00 D5 00 00 00 00 75 30 00 D5 01 4E 00 18 00 00 17 08 0A 05 34 BE 20 02 00 1E 04 9F 00 4E 00 41 75 30 75 30 01 9B 00 51 00 25 00 59 08 77 03 3E 05 DE 75 30 75 30 00 2C 00 3E 00 54 04 7E 05 46 05 DC 00 0A 00 00 01 76 03 DE 00 00 CC EF 00 14 01 12 01 FE 00 E6 00 EB 01 04 00 C8 00 B4 01 18 FB 02 FB 02 00 0F 00 1E D9 32 00 00 C8 23 02 26 00 32 01 2C 00 1D 00 D5 75 30 75 30 01 00 01 00 01 00 01 00 01 00 01 00 00 00 00 3F 00 3F 00 00 00 01 29 09 29 09 29 09 29 09 29 09 29 09 00 01 00 01 00 D5 00 C5 00 DC 00 D4 00 C7 00 EF 00 D5 00 D5 00 3C 00 00 00 00 00 00 00 00 00 00 00 64 00 64 00 01 00 07 00 08 00 09 00 0A 00 0B 00 01 00 01 64 00 64 00 64 00 64 00 64 00 64 00 64 00 64 00 CD 8F |.....Y.........u0...N........4. ......N.Au0u0...Q.%.Y.w.>..u0u0.,.>.T.~.F.......v.................................2...#.&.2.,....u0u0...............?.?....).).).).).)......................<...........d.d................d.d.d.d.d.d.d.d...|
A 29 1112.649000 +492023us 8: 67 03 00 02 00 7C EC 2D |g....|.-|
A 30 1113.149000 +492023us 8: 68 03 00 02 00 7C EC D2 |h....|..|
A 31 1113.650000 +493024us 253: 00 10 00 04 00 7A F4 03 2B 01 18 96 49 18 04 05 F3 00 00 80 82 59 04 00 EB 00 D5 00 00 00 00 75 30 00 D5 01 51 00 18 00 00 17 08 0D 05 34 BE 20 02 00 1F 04 A1 00 4E 00 41 75 30 75 30 01 A5 00 4F 00 25 00 59 08 6D 03 3C 06 2B 75 30 75 30 00 2C 00 3E 00 54 04 7E 05 46 05 DC 00 0A 00 00 01 76 03 DE 00 00 CC EF 00 14 01 14 01 FD 00 E6 00 EB 01 04 00 C8 00 B4 01 18 FB 02 FB 02 00 0F 00 1E 00 32 00 00 00 23 02 26 00 32 01 2C 00 1D 00 D5 75 30 75 30 01 00 01 00 01 00 01 00 01 00 01 00 00 00 00 3F 00 3F 00 00 00 01 29 09 29 09 29 09 29 09 29 09 29 09 00 01 00 01 00 D5 00 C5 00 DC 00 D4 00 C7 00 EF 00 D5 00 D5 00 3C 00 00 00 00 00 00 00 00 00 00 00 64 00 64 00 01 00 07 00 08 00 09 00 0A 00 0B 00 01 00 01 64 00 64 00 64 00 64 00 64 00 64 00 64 00 64 00 B5 36 |.....z..+...I........Y.........u0...Q........4. ......N.Au0u0...O.%.Y.m.<.+u0u0.,.>.T.~.F.......v.................................2...#.&.2.,....u0u0...............?.?....).).).).).)......................<...........d.d................d.d.d.d.d.d.d.d..6|
A 32 1114.149000 +237024us 31: 00 10 00 7E 00 7B F6 00 00 00 E6 00 E6 00 D2 00 D2 00 E1 00 D2 00 D7 00 D7 00 D7 00 DC 00 E6 |...~.{.........................|
A 33 1114.187000 +6404us 224: 00 F0 00 F0 00 F0 00 E6 00 E6 01 DE 02 0E 02 11 02 0A 02 1A 02 11 02 0A 02 04 00 1E 40 1E 40 1E 40 1E 40 1E 40 1E 00 00 00 00 00 C5 00 DC 00 D4 00 C7 00 EF 75 30 75 30 75 30 75 30 75 30 75 30 75 30 75 30 75 30 75 30 75 30 01 00 01 00 01 00 01 00 01 00 00 00 00 00 00 00 00 00 00 00 00 00 00 00 00 00 00 00 00 00 00 00 01 DE 75 30 75 30 02 3F 02 17 01 F6 02 5A 01 E6 75 30 75 30 75 30 75 30 75 30 75 30 75 30 75 30 75 30 75 30 75 30 75 30 75 30 75 30 75 30 75 30 75 30 75 30 75 30 75 30 75 30 75 30 75 30 75 30 75 30 75 30 75 30 00 02 00 02 00 02 00 02 00 02 00 00 00 00 00 00 00 00 00 00 00 00 00 00 00 00 00 00 00 00 00 00 00 07 00 28 03 20 00 3C FF 42 00 24 03 78 72 B6 |............................@.@.@.@.@...............u0u0u0u0u0u0u0u0u0u0u0..................................u0u0.?.....Z..u0u0u0u0u0u0u0u0u0u0u0u0u0u0u0u0u0u0u0u0u0u0u0u0u0u0u0...................................(. .<.B.$.xr.|
A 34 1114.649000 +236022us 8: 66 03 00 02 00 7C ED FC |f....|..|
B 35 1114.664000 +2238001us 253: 66 03 F8 00 6E 26 23 03 2B 01 18 96 49 18 04 05 F3 00 00 80 82 59 04 00 EB 00 D5 00 00 00 00 75 30 00 D5 01 51 00 18 00 00 17 08 0D 05 34 BE 20 02 00 1F 04 A1 00 4E 00 41 75 30 75 30 01 A5 00 4F 00 25 00 59 08 6D 03 3C 06 2B 75 30 75 30 00 2C 00 3E 00 54 04 7E 05 46 05 DC 00 0A 00 00 01 76 03 DE 00 00 CC EF 00 14 01 14 01 FD 00 E6 00 EB 01 04 00 C8 00 B4 01 18 FB 02 FB 02 00 0F 00 1E 00 32 00 00 00 23 02 26 00 32 01 2C 00 1D 00 D5 75 30 75 30 01 00 01 00 01 00 01 00 01 00 01 00 00 00 00 3F 00 3F 00 00 00 01 29 09 29 09 29 09 29 09 29 09 29 09 00 01 00 01 00 D5 00 C5 00 DC 00 D4 00 C7 00 EF 00 D5 00 D5 00 3C 00 00 00 00 00 00 00 00 00 00 00 64 00 64 00 01 00 07 00 08 00 09 00 0A 00 0B 00 01 00 01 64 00 64 00 64 00 64 00 64 00 64 00 64 00 64 00 3E 14 |f...n&#.+...I........Y.........u0...Q........4. ......N.Au0u0...O.%.Y.m.<.+u0u0.,.>.T.~.F.......v.................................2...#.&.2.,....u0u0...............?.?....).).).).).)......................<...........d.d................d.d.d.d.d.d.d.d.>.|
A 36 1115.149000 +493020us 8: 66 03 00 7E 00 7A AC 26 |f..~.z.&|
B 37 1115.166000 +241001us 249: 66 03 F4 00 40 00 E6 00 E6 00 D2 00 D2 00 E1 00 D2 00 D7 00 D7 00 D7 00 DC 00 E6 00 F0 00 F0 00 F0 00 E6 00 E6 01 DE 02 0E 02 11 02 0A 02 1A 02 11 02 0A 02 04 00 1E 40 1E 40 1E 40 1E 40 1E 40 1E 00 00 00 00 00 C5 00 DC 00 D4 00 C7 00 EF 75 30 75 30 75 30 75 30 75 30 75 30 75 30 75 30 75 30 75 30 75 30 01 00 01 00 01 00 01 00 01 00 00 00 00 00 00 00 00 00 00 00 00 00 00 00 00 00 00 00 00 00 00 00 01 DE 75 30 75 30 02 3F 02 17 01 F6 02 5B 01 E5 75 30 75 30 75 30 75 30 75 30 75 30 75 30 75 30 75 30 75 30 75 30 75 30 75 30 75 30 75 30 75 30 75 30 75 30 75 30 75 30 75 30 75 30 75 30 75 30 75 30 75 30 75 30 00 02 00 02 00 02 00 02 00 02 00 00 00 00 00 00 00 00 00 00 00 00 00 00 00 00 00 00 00 00 00 00 00 07 29 28 03 20 00 3C FF 42 00 24 8C FB |f...@..................................................@.@.@.@.@...............u0u0u0u0u0u0u0u0u0u0u0..................................u0u0.?.....[..u0u0u0u0u0u0u0u0u0u0u0u0u0u0u0u0u0u0u0u0u0u0u0u0u0u0u0..................................)(. .<.B.$..|
A 38 1115.649000 +493003us 8: 67 03 00 02 00 7C EC 2D |g....|.-|
A 39 1116.149000 +493021us 8: 68 03 00 02 00 7C EC D2 |h....|..|
A 40 1116.650000 +494023us 253: 00 10 00 04 00 7A F4 03 2B 01 18 96 49 18 04 05 F3 00 00 80 82 59 04 00 EB 00 D5 00 00 00 00 75 30 00 D5 01 54 00 18 00 00 17 08 10 05 34 BE 20 02 00 20 04 9E 00 4E 00 40 75 30 75 30 01 AA 00 4E 00 24 00 59 08 64 03 3A 06 26 75 30 75 30 00 2C 00 3E 00 54 04 7E 05 46 05 DC 00 0A 00 00 01 76 03 DE 00 00 CC EF 00 14 01 11 01 FE 00 E6 00 EB 01 04 00 C8 00 B4 01 18 FB 02 FB 02 00 0F 00 1E D9 32 00 00 C8 23 02 26 00 32 01 2C 00 1D 00 D5 75 30 75 30 01 00 01 00 01 00 01 00 01 00 01 00 00 00 00 3F 00 3F 00 00 00 01 29 09 29 09 29 09 29 09 29 09 29 09 00 01 00 01 00 D5 00 C5 00 DC 00 D4 00 C7 00 EF 00 D5 00 D5 00 3C 00 00 00 00 00 00 00 00 00 00 00 64 00 64 00 01 00 07 00 08 00 09 00 0A 00 0B 00 01 00 01 64 00 64 00 64 00 64 00 64 00 64 00 64 00 64 00 E1 C4 |.....z..+...I........Y.........u0...T........4. .. ...N.@u0u0...N.$.Y.d.:.&u0u0.,.>.T.~.F.......v.................................2...#.&.2.,....u0u0...............?.?....).).).).).)......................<...........d.d................d.d.d.d.d.d.d.d...|
A 41 1117.149000 +238003us 255: 00 10 00 7E 00 7B F6 00 00 00 E6 00 E6 00 D2 00 D2 00 E1 00 D2 00 D7 00 D7 00 D7 00 DC 00 E6 00 F0 00 F0 00 F0 00 E6 00 E6 01 DE 02 0E 02 11 02 0A 02 1A 02 11 02 0A 02 04 00 1E 40 1E 40 1E 40 1E 40 1E 40 1E 00 00 00 00 00 C5 00 DC 00 D4 00 C7 00 EF 75 30 75 30 75 30 75 30 75 30 75 30 75 30 75 30 75 30 75 30 75 30 01 00 01 00 01 00 01 00 01 00 00 00 00 00 00 00 00 00 00 00 00 00 00 00 00 00 00 00 00 00 00 00 01 DE 75 30 75 30 02 3F 02 17 01 F6 02 5B 01 E5 75 30 75 30 75 30 75 30 75 30 75 30 75 30 75 30 75 30 75 30 75 30 75 30 75 30 75 30 75 30 75 30 75 30 75 30 75 30 75 30 75 30 75 30 75 30 75 30 75 30 75 30 75 30 00 02 00 02 00 02 00 02 00 02 00 00 00 00 00 00 00 00 00 00 00 00 00 00 00 00 00 00 00 00 00 00 00 07 29 28 03 20 00 3C FF 42 00 24 03 78 F8 4E |...~.{.....................................................@.@.@.@.@...............u0u0u0u0u0u0u0u0u0u0u0..................................u0u0.?.....[..u0u0u0u0u0u0u0u0u0u0u0u0u0u0u0u0u0u0u0u0u0u0u0u0u0u0u0..................................)(. .<.B.$.x.N|
A 42 1117.649000 +236003us 8: 66 03 00 02 00 7C ED FC |f....|..|
B 43 1117.664000 +2241000us 253: 66 03 F8 00 6E 26 23 03 2B 01 18 96 49 18 04 05 F3 00 00 80 82 59 04 00 EB 00 D5 00 00 00 00 75 30 00 D5 01 54 00 18 00 00 17 08 10 05 34 BE 20 02 00 20 04 9E 00 4E 00 40 75 30 75 30 01 AA 00 4E 00 24 00 59 08 64 03 3A 06 26 75 30 75 30 00 2C 00 3E 00 54 04 7E 05 46 05 DC 00 0A 00 00 01 76 03 DE 00 00 CC EF 00 14 01 11 01 FE 00 E6 00 EB 01 04 00 C8 00 B4 01 18 FB 02 FB 02 00 0F 00 1E D9 32 00 00 C8 23 02 26 00 32 01 2C 00 1D 00 D5 75 30 75 30 01 00 01 00 01 00 01 00 01 00 01 00 00 00 00 3F 00 3F 00 00 00 01 29 09 29 09 29 09 29 09 29 09 29 09 00 01 00 01 00 D5 00 C5 00 DC 00 D4 00 C7 00 EF 00 D5 00 D5 00 3C 00 00 00 00 00 00 00 00 00 00 00 64 00 64 00 01 00 07 00 08 00 09 00 0A 00 0B 00 01 00 01 64 00 64 00 64 00 64 00 64 00 64 00 64 00 64 00 6A E6 |f...n&#.+...I........Y.........u0...T........4. .. ...N.@u0u0...N.$.Y.d.:.&u0u0.,.>.T.~.F.......v.................................2...#.&.2.,....u0u0...............?.?....).).).).).)......................<...........d.d................d.d.d.d.d.d.d.d.j.|
A 44 1118.149000 +493004us 8: 66 03 00 7E 00 7A AC 26 |f..~.z.&|
B 45 1118.166000 +241000us 17: 66 03 F4 00 20 00 E6 00 E6 00 D2 00 D2 00 E1 00 D2 |f... ............|
B 46 1118.189000 +6268us 232: 00 D7 00 D7 00 D7 00 DC 00 E6 00 F0 00 F0 00 F0 00 E6 00 E6 01 DE 02 0E 02 11 02 0A 02 1A 02 11 02 0A 02 04 00 1E 40 1E 40 1E 40 1E 40 1E 40 1E 00 00 00 00 00 C5 00 DC 00 D4 00 C7 00 EF 75 30 75 30 75 30 75 30 75 30 75 30 75 30 75 30 75 30 75 30 75 30 01 00 01 00 01 00 01 00 01 00 00 00 00 00 00 00 00 00 00 00 00 00 00 00 00 00 00 00 00 00 00 00 01 DD 75 30 75 30 02 3F 02 17 01 F6 02 5B 01 E5 75 30 75 30 75 30 75 30 75 30 75 30 75 30 75 30 75 30 75 30 75 30 75 30 75 30 75 30 75 30 75 30 75 30 75 30 75 30 75 30 75 30 75 30 75 30 75 30 75 30 75 30 75 30 00 02 00 02 00 02 00 02 00 02 00 00 00 00 00 00 00 00 00 00 00 00 00 00 00 00 00 00 00 00 00 00 00 07 29 28 03 20 00 3C FF 42 00 24 F8 86 |......................................@.@.@.@.@...............u0u0u0u0u0u0u0u0u0u0u0..................................u0u0.?.....[..u0u0u0u0u0u0u0u0u0u0u0u0u0u0u0u0u0u0u0u0u0u0u0u0u0u0u0..................................)(. .<.B.$..|
A 47 1118.649000 +493023us 8: 67 03 00 02 00 7C EC 2D |g....|.-|
A 48 1119.149000 +493003us 8: 68 03 00 02 00 7C EC D2 |h....|..|
A 49 1119.649000 +493020us 253: 00 10 00 04 00 7A F4 03 2B 01 18 96 49 18 04 05 F3 00 00 80 82 59 04 00 EB 00 D5 00 00 00 00 75 30 00 D5 01 56 00 18 00 00 17 08 13 05 34 BE 20 02 00 20 04 9E 00 4E 00 40 75 30 75 30 01 B0 00 4E 00 25 00 59 08 61 03 36 06 29 75 30 75 30 00 2C 00 3E 00 54 04 7E 05 46 05 DC 00 0A 00 00 01 76 03 DE 00 00 CC EF 00 14 01 11 01 FE 00 E6 00 EB 01 04 00 C8 00 B4 01 18 FB 02 FB 02 00 0F 00 1E 00 32 00 00 00 23 02 26 00 32 01 2C 00 1D 00 D5 75 30 75 30 01 00 01 00 01 00 01 00 01 00 01 00 00 00 00 3F 00 3F 00 00 00 01 29 09 29 09 29 09 29 09 29 09 29 09 00 01 00 01 00 D5 00 C5 00 DC 00 D4 00 C7 00 EF 00 D5 00 D5 00 3C 00 00 00 00 00 00 00 00 00 00 00 64 00 64 00 01 00 07 00 08 00 09 00 0A 00 0B 00 01 00 01 64 00 64 00 64 00 64 00 64 00 64 00 64 00 64 00 FB 0E |.....z..+...I........Y.........u0...V........4. .. ...N.@u0u0...N.%.Y.a.6.)u0u0.,.>.T.~.F.......v.................................2...#.&.2.,....u0u0...............?.?....).).).).).)......................<...........d.d................d.d.d.d.d.d.d.d...|
A 50 1120.149000 +238004us 35: 00 10 00 7E 00 7B F6 00 00 00 E6 00 E6 00 D2 00 D2 00 E1 00 D2 00 D7 00 D7 00 D7 00 DC 00 E6 00 F0 00 F0 |...~.{.............................|
A 51 1120.190000 +6375us 220: 00 F0 00 E6 00 E6 01 DE 02 0E 02 11 02 0A 02 1A 02 11 02 0A 02 04 00 1E 40 1E 40 1E 40 1E 40 1E 40 1E 00 00 00 00 00 C5 00 DC 00 D4 00 C7 00 EF 75 30 75 30 75 30 75 30 75 30 75 30 75 30 75 30 75 30 75 30 75 30 01 00 01 00 01 00 01 00 01 00 00 00 00 00 00 00 00 00 00 00 00 00 00 00 00 00 00 00 00 00 00 00 01 DE 75 30 75 30 02 3F 02 17 01 F6 02 5B 01 E5 75 30 75 30 75 30 75 30 75 30 75 30 75 30 75 30 75 30 75 30 75 30 75 30 75 30 75 30 75 30 75 30 75 30 75 30 75 30 75 30 75 30 75 30 75 30 75 30 75 30 75 30 75 30 00 02 00 02 00 02 00 02 00 02 00 00 00 00 00 00 00 00 00 00 00 00 00 00 00 00 00 00 00 00 00 00 00 07 00 28 03 20 00 3C FF 42 00 24 03 78 65 ED |........................@.@.@.@.@...............u0u0u0u0u0u0u0u0u0u0u0..................................u0u0.?.....[..u0u0u0u0u0u0u0u0u0u0u0u0u0u0u0u0u0u0u0u0u0u0u0u0u0u0u0...................................(. .<.B.$.xe.|
A 52 1120.649000 +236990us 181: 00 10 13 88 00 56 AC 00 7D 00 64 44 96 00 04 01 18 00 00 00 00 18 04 05 F3 00 00 00 02 00 42 00 02 00 20 00 18 00 00 00 1D 04 9F 01 55 00 00 00 4E 00 40 75 30 75 30 01 B0 00 4E 01 6C 00 28 08 61 03 36 00 00 00 00 02 8A 00 00 00 59 00 59 00 02 00 64 00 21 00 00 00 04 00 65 00 28 00 00 07 08 00 02 00 41 00 25 00 2D 01 00 00 00 00 38 00 38 00 38 00 2C 00 2D E5 E1 00 08 00 00 00 00 0D E4 00 00 00 00 00 00 22 66 19 47 00 00 06 29 07 F0 00 00 03 2A 00 00 00 00 00 00 00 00 00 00 00 00 00 00 00 00 00 00 00 00 00 00 00 00 00 00 00 00 00 00 12 3C |.....V..}.dD..................B... .........U...N.@u0u0...N.l.(.a.6.........Y.Y...d.!.....e.(.......A.%.-.....8.8.8.,.-................"f.G...).....*...............................<|
A 53 1121.149000 +313024us 8: 66 03 00 02 00 7C ED FC |f....|..|
B 54 1121.164000 +2741001us 253: 66 03 F8 00 6E 26 23 03 2B 01 18 96 49 18 04 05 F3 00 00 80 82 59 04 00 EB 00 D5 00 00 00 00 75 30 00 D5 01 56 00 18 00 00 17 08 13 05 34 BE 20 02 00 20 04 9E 00 4E 00 40 75 30 75 30 01 B0 00 4E 00 25 00 59 08 61 03 36 06 29 75 30 75 30 00 2C 00 3E 00 54 04 7E 05 46 05 DC 00 0A 00 00 01 76 03 DE 00 00 CC EF 00 14 01 11 01 FE 00 E6 00 EB 01 04 00 C8 00 B4 01 18 FB 02 FB 02 00 0F 00 1E 00 32 00 00 00 23 02 26 00 32 01 2C 00 1D 00 D5 75 30 75 30 01 00 01 00 01 00 01 00 01 00 01 00 00 00 00 3F 00 3F 00 00 00 01 29 09 29 09 29 09 29 09 29 09 29 09 00 01 00 01 00 D5 00 C5 00 DC 00 D4 00 C7 00 EF 00 D5 00 D5 00 3C 00 00 00 00 00 00 00 00 00 00 00 64 00 64 00 01 00 07 00 08 00 09 00 0A 00 0B 00 01 00 01 64 00 64 00 64 00 64 00 64 00 64 00 64 00 64 00 70 2C |f...n&#.+...I........Y.........u0...V........4. .. ...N.@u0u0...N.%.Y.a.6.)u0u0.,.>.T.~.F.......v.................................2...#.&.2.,....u0u0...............?.?....).).).).).)......................<...........d.d................d.d.d.d.d.d.d.d.p,|
A 55 1121.648000 +492003us 8: 66 03 00 7E 00 7A AC 26 |f..~.z.&|
B 56 1121.666000 +241001us 249: 66 03 F4 00 00 00 E6 00 E6 00 D2 00 D2 00 E1 00 D2 00 D7 00 D7 00 D7 00 DC 00 E6 00 F0 00 F0 00 F0 00 E6 00 E6 01 DE 02 0E 02 11 02 0A 02 1A 02 11 02 0A 02 04 00 1E 40 1E 40 1E 40 1E 40 1E 40 1E 00 00 00 00 00 C5 00 DC 00 D4 00 C7 00 EF 75 30 75 30 75 30 75 30 75 30 75 30 75 30 75 30 75 30 75 30 75 30 01 00 01 00 01 00 01 00 01 00 00 00 00 00 00 00 00 00 00 00 00 00 00 00 00 00 00 00 00 00 00 00 01 DD 75 30 75 30 02 3F 02 17 01 F6 02 5B 01 E5 75 30 75 30 75 30 75 30 75 30 75 30 75 30 75 30 75 30 75 30 75 30 75 30 75 30 75 30 75 30 75 30 75 30 75 30 75 30 75 30 75 30 75 30 75 30 75 30 75 30 75 30 75 30 00 02 00 02 00 02 00 02 00 02 00 00 00 00 00 00 00 00 00 00 00 00 00 00 00 00 00 00 00 00 00 00 00 07 29 28 03 20 00 3C FF 42 00 24 73 4B |f......................................................@.@.@.@.@...............u0u0u0u0u0u0u0u0u0u0u0..................................u0u0.?.....[..u0u0u0u0u0u0u0u0u0u0u0u0u0u0u0u0u0u0u0u0u0u0u0u0u0u0u0..................................)(. .<.B.$sK|
A 57 1122.148000 +492024us 8: 67 03 00 02 00 7C EC 2D |g....|.-|
A 58 1122.648000 +492023us 8: 68 03 00 02 00 7C EC D2 |h....|..|
A 59 1123.149000 +493023us 253: 00 10 00 04 00 7A F4 03 2B 01 18 96 49 18 04 05 F3 00 00 80 82 59 04 00 EB 00 D5 00 00 00 00 75 30 00 D5 01 58 00 18 00 00 17 08 16 05 34 BE 20 02 00 21 04 9D 00 4E 00 3F 75 30 75 30 01 B7 00 4C 00 25 00 59 08 5B 03 31 06 70 75 30 75 30 00 2C 00 3E 00 54 04 7E 05 46 05 DC 00 0A 00 00 01 76 03 DE 00 00 CC EF 00 14 01 11 01 FF 00 E6 00 EB 01 04 00 C8 00 B4 01 18 FB 02 FB 02 00 0F 00 1E D9 32 00 00 C8 23 02 26 00 32 01 2C 00 1D 00 D5 75 30 75 30 01 00 01 00 01 00 01 00 01 00 01 00 00 00 00 3F 00 3F 00 00 00 01 29 09 29 09 29 09 29 09 29 09 29 09 00 01 00 01 00 D5 00 C5 00 DC 00 D4 00 C7 00 EF 00 D5 00 D5 00 3C 00 00 00 00 00 00 00 00 00 00 00 64 00 64 00 01 00 07 00 08 00 09 00 0A 00 0B 00 01 00 01 64 00 64 00 64 00 64 00 64 00 64 00 64 00 64 00 F8 EB |.....z..+...I........Y.........u0...X........4. ..!...N.?u0u0...L.%.Y.[.1.pu0u0.,.>.T.~.F.......v.................................2...#.&.2.,....u0u0...............?.?....).).).).).)......................<...........d.d................d.d.d.d.d.d.d.d...|
A 60 1123.648000 +237066us 255: 00 10 00 7E 00 7B F6 00 00 00 E6 00 E6 00 D2 00 D2 00 E1 00 D2 00 D7 00 D7 00 D7 00 DC 00 E6 00 F0 00 F0 00 F0 00 E6 00 E6 01 DE 02 0E 02 11 02 0A 02 1A 02 11 02 0A 02 04 00 1E 40 1E 40 1E 40 1E 40 1E 40 1E 00 00 00 00 00 C5 00 DC 00 D4 00 C7 00 EF 75 30 75 30 75 30 75 30 75 30 75 30 75 30 75 30 75 30 75 30 75 30 01 00 01 00 01 00 01 00 01 00 00 00 00 00 00 00 00 00 00 00 00 00 00 00 00 00 00 00 00 00 00 00 01 DE 75 30 75 30 02 3F 02 17 01 F6 02 5B 01 E5 75 30 75 30 75 30 75 30 75 30 75 30 75 30 75 30 75 30 75 30 75 30 75 30 75 30 75 30 75 30 75 30 75 30 75 30 75 30 75 30 75 30 75 30 75 30 75 30 75 30 75 30 75 30 00 02 00 02 00 02 00 02 00 02 00 00 00 00 00 00 00 00 00 00 00 00 00 00 00 00 00 00 00 00 00 00 00 07 29 28 03 20 00 3C FF 42 00 24 03 78 F8 4E |...~.{.....................................................@.@.@.@.@...............u0u0u0u0u0u0u0u0u0u0u0..................................u0u0.?.....[..u0u0u0u0u0u0u0u0u0u0u0u0u0u0u0u0u0u0u0u0u0u0u0u0u0u0u0..................................)(. .<.B.$.x.N|
A 61 1124.148000 +236019us 8: 66 03 00 02 00 7C ED FC |f....|..|
B 62 1124.163000 +2240000us 23: 66 03 F8 00 6E 26 23 03 2B 01 18 96 49 18 04 05 F3 00 00 80 82 59 04 |f...n&#.+...I........Y.|
B 63 1124.192000 +6292us 230: 00 EB 00 D5 00 00 00 00 75 30 00 D5 01 58 00 18 00 00 17 08 16 05 34 BE 20 02 00 21 04 9D 00 4E 00 3F 75 30 75 30 01 B7 00 4C 00 25 00 59 08 5B 03 31 06 70 75 30 75 30 00 2C 00 3E 00 54 04 7E 05 46 05 DC 00 0A 00 00 01 76 03 DE 00 00 CC EF 00 14 01 11 01 FF 00 E6 00 EB 01 04 00 C8 00 B4 01 18 FB 02 FB 02 00 0F 00 1E D9 32 00 00 C8 23 02 26 00 32 01 2C 00 1D 00 D5 75 30 75 30 01 00 01 00 01 00 01 00 01 00 01 00 00 00 00 3F 00 3F 00 00 00 01 29 09 29 09 29 09 29 09 29 09 29 09 00 01 00 01 00 D5 00 C5 00 DC 00 D4 00 C7 00 EF 00 D5 00 D5 00 3C 00 00 00 00 00 00 00 00 00 00 00 64 00 64 00 01 00 07 00 08 00 09 00 0A 00 0B 00 01 00 01 64 00 64 00 64 00 64 00 64 00 64 00 64 00 64 00 73 C9 |........u0...X........4. ..!...N.?u0u0...L.%.Y.[.1.pu0u0.,.>.T.~.F.......v.................................2...#.&.2.,....u0u0...............?.?....).).).).).)......................<...........d.d................d.d.d.d.d.d.d.d.s.|
A 64 1124.648000 +493021us 8: 67 03 00 02 00 7C EC 2D |g....|.-|
A 65 1125.148000 +493023us 8: 68 03 00 02 00 7C EC D2 |h....|..|
A 66 1125.649000 +494004us 253: 00 10 00 04 00 7A F4 03 2B 01 18 96 49 18 04 05 F3 00 00 80 82 59 04 00 EB 00 D5 00 00 00 00 75 30 00 D5 01 5A 00 18 00 00 17 08 19 05 34 BE 20 02 00 22 04 A2 00 4D 00 3E 75 30 75 30 01 BC 00 4B 00 25 00 59 08 5B 03 2C 06 71 75 30 75 30 00 2C 00 3E 00 54 04 7E 05 46 05 DC 00 0A 00 00 01 76 03 DE 00 00 CC EF 00 14 01 15 01 FC 00 E6 00 EB 01 04 00 C8 00 B4 01 18 FB 02 FB 02 00 0F 00 1E 00 32 00 00 00 23 02 26 00 32 01 2C 00 1D 00 D5 75 30 75 30 01 00 01 00 01 00 01 00 01 00 01 00 00 00 00 3F 00 3F 00 00 00 01 29 09 29 09 29 09 29 09 29 09 29 09 00 01 00 01 00 D5 00 C5 00 DC 00 D4 00 C7 00 EF 00 D5 00 D5 00 3C 00 00 00 00 00 00 00 00 00 00 00 64 00 64 00 01 00 07 00 08 00 09 00 0A 00 0B 00 01 00 01 64 00 64 00 64 00 64 00 64 00 64 00 64 00 64 00 A6 4C |.....z..+...I........Y.........u0...Z........4. .."...M.>u0u0...K.%.Y.[.,.qu0u0.,.>.T.~.F.......v.................................2...#.&.2.,....u0u0...............?.?....).).).).).)......................<...........d.d................d.d.d.d.d.d.d.d..L|
A 67 1126.148000 +238003us 38: 00 10 00 7E 00 7B F6 00 00 00 E6 00 E6 00 D2 00 D2 00 E1 00 D2 00 D7 00 D7 00 D7 00 DC 00 E6 00 F0 00 F0 00 F0 00 |...~.{................................|
A 68 1126.193000 +6392us 217: E6 00 E6 01 DE 02 0E 02 11 02 0A 02 1A 02 11 02 0A 02 04 00 1E 40 1E 40 1E 40 1E 40 1E 40 1E 00 00 00 00 00 C5 00 DC 00 D4 00 C7 00 EF 75 30 75 30 75 30 75 30 75 30 75 30 75 30 75 30 75 30 75 30 75 30 01 00 01 00 01 00 01 00 01 00 00 00 00 00 00 00 00 00 00 00 00 00 00 00 00 00 00 00 00 00 00 00 01 DE 75 30 75 30 02 3F 02 17 01 F6 02 5B 01 E5 75 30 75 30 75 30 75 30 75 30 75 30 75 30 75 30 75 30 75 30 75 30 75 30 75 30 75 30 75 30 75 30 75 30 75 30 75 30 75 30 75 30 75 30 75 30 75 30 75 30 75 30 75 30 00 02 00 02 00 02 00 02 00 02 00 00 00 00 00 00 00 00 00 00 00 00 00 00 00 00 00 00 00 00 00 00 00 07 00 28 03 20 00 3C FF 42 00 24 03 78 65 ED |.....................@.@.@.@.@...............u0u0u0u0u0u0u0u0u0u0u0..................................u0u0.?.....[..u0u0u0u0u0u0u0u0u0u0u0u0u0u0u0u0u0u0u0u0u0u0u0u0u0u0u0...................................(. .<.B.$.xe.|
A 69 1126.648000 +236023us 8: 66 03 00 02 00 7C ED FC |f....|..|
B 70 1126.663000 +2239001us 253: 66 03 F8 00 6E 26 23 03 2B 01 18 96 49 18 04 05 F3 00 00 80 82 59 04 00 EB 00 D5 00 00 00 00 75 30 00 D5 01 5A 00 18 00 00 17 08 19 05 34 BE 20 02 00 22 04 A2 00 4D 00 3E 75 30 75 30 01 BC 00 4B 00 25 00 59 08 5B 03 2C 06 71 75 30 75 30 00 2C 00 3E 00 54 04 7E 05 46 05 DC 00 0A 00 00 01 76 03 DE 00 00 CC EF 00 14 01 15 01 FC 00 E6 00 EB 01 04 00 C8 00 B4 01 18 FB 02 FB 02 00 0F 00 1E 00 32 00 00 00 23 02 26 00 32 01 2C 00 1D 00 D5 75 30 75 30 01 00 01 00 01 00 01 00 01 00 01 00 00 00 00 3F 00 3F 00 00 00 01 29 09 29 09 29 09 29 09 29 09 29 09 00 01 00 01 00 D5 00 C5 00 DC 00 D4 00 C7 00 EF 00 D5 00 D5 00 3C 00 00 00 00 00 00 00 00 00 00 00 64 00 64 00 01 00 07 00 08 00 09 00 0A 00 0B 00 01 00 01 64 00 64 00 64 00 64 00 64 00 64 00 64 00 64 00 2D 6E |f...n&#.+...I........Y.........u0...Z........4. .."...M.>u0u0...K.%.Y.[.,.qu0u0.,.>.T.~.F.......v.................................2...#.&.2.,....u0u0...............?.?....).).).).).)......................<...........d.d................d.d.d.d.d.d.d.d.-n|
A 71 1127.148000 +493003us 8: 66 03 00 7E 00 7A AC 26 |f..~.z.&|
B 72 1127.165000 +241001us 249: 66 03 F4 00 20 00 E6 00 E6 00 D2 00 D2 00 E1 00 D2 00 D7 00 D7 00 D7 00 DC 00 E6 00 F0 00 F0 00 F0 00 E6 00 E6 01 DE 02 0E 02 11 02 0A 02 1A 02 11 02 0A 02 04 00 1E 40 1E 40 1E 40 1E 40 1E 40 1E 00 00 00 00 00 C5 00 DC 00 D4 00 C7 00 EF 75 30 75 30 75 30 75 30 75 30 75 30 75 30 75 30 75 30 75 30 75 30 01 00 01 00 01 00 01 00 01 00 00 00 00 00 00 00 00 00 00 00 00 00 00 00 00 00 00 00 00 00 00 00 01 DE 75 30 75 30 02 3F 02 17 01 F6 02 5B 01 E5 75 30 75 30 75 30 75 30 75 30 75 30 75 30 75 30 75 30 75 30 75 30 75 30 75 30 75 30 75 30 75 30 75 30 75 30 75 30 75 30 75 30 75 30 75 30 75 30 75 30 75 30 75 30 00 02 00 02 00 02 00 02 00 02 00 00 00 00 00 00 00 00 00 00 00 00 00 00 00 00 00 00 00 00 00 00 00 07 29 28 03 20 00 3C FF 42 00 24 12 ED |f... ..................................................@.@.@.@.@...............u0u0u0u0u0u0u0u0u0u0u0..................................u0u0.?.....[..u0u0u0u0u0u0u0u0u0u0u0u0u0u0u0u0u0u0u0u0u0u0u0u0u0u0u0..................................)(. .<.B.$..|
A 73 1127.648000 +493015us 8: 67 03 00 02 00 7C EC 2D |g....|.-|
A 74 1128.148000 +493023us 8: 68 03 00 02 00 7C EC D2 |h....|..|
A 75 1128.649000 +494024us 253: 00 10 00 04 00 7A F4 03 2B 01 18 96 49 18 04 05 F3 00 00 80 82 59 04 00 EB 00 D5 00 00 00 00 75 30 00 D5 01 5B 00 18 00 00 17 08 1C 05 34 BE 20 02 00 23 04 A1 00 4D 00 3E 75 30 75 30 01 BD 00 4A 00 26 00 59 08 59 03 26 06 BB 75 30 75 30 00 2C 00 3E 00 54 04 7E 05 46 05 DC 00 0A 00 00 01 76 03 DE 00 00 CC EF 00 14 01 14 01 FD 00 E6 00 EB 01 04 00 C8 00 B4 01 18 FB 02 FB 02 00 0F 00 1E D9 32 00 00 C8 23 02 26 00 32 01 2C 00 1D 00 D5 75 30 75 30 01 00 01 00 01 00 01 00 01 00 01 00 00 00 00 3F 00 3F 00 00 00 01 29 09 29 09 29 09 29 09 29 09 29 09 00 01 00 01 00 D5 00 C5 00 DC 00 D4 00 C7 00 EF 00 D5 00 D5 00 3C 00 00 00 00 00 00 00 00 00 00 00 64 00 64 00 01 00 07 00 08 00 09 00 0A 00 0B 00 01 00 01 64 00 64 00 64 00 64 00 64 00 64 00 64 00 64 00 2D C9 |.....z..+...I........Y.........u0...[........4. ..#...M.>u0u0...J.&.Y.Y.&..u0u0.,.>.T.~.F.......v.................................2...#.&.2.,....u0u0...............?.?....).).).).).)......................<...........d.d................d.d.d.d.d.d.d.d.-.|
A 76 1129.148000 +238004us 255: 00 10 00 7E 00 7B F6 00 00 00 E6 00 E6 00 D2 00 D2 00 E1 00 D2 00 D7 00 D7 00 D7 00 DC 00 E6 00 F0 00 F0 00 F0 00 E6 00 E6 01 DE 02 0E 02 11 02 0A 02 1A 02 11 02 0A 02 04 00 1E 40 1E 40 1E 40 1E 40 1E 40 1E 00 00 00 00 00 C5 00 DC 00 D4 00 C7 00 EF 75 30 75 30 75 30 75 30 75 30 75 30 75 30 75 30 75 30 75 30 75 30 01 00 01 00 01 00 01 00 01 00 00 00 00 00 00 00 00 00 00 00 00 00 00 00 00 00 00 00 00 00 00 00 01 DE 75 30 75 30 02 3F 02 17 01 F6 02 5B 01 E5 75 30 75 30 75 30 75 30 75 30 75 30 75 30 75 30 75 30 75 30 75 30 75 30 75 30 75 30 75 30 75 30 75 30 75 30 75 30 75 30 75 30 75 30 75 30 75 30 75 30 75 30 75 30 00 02 00 02 00 02 00 02 00 02 00 00 00 00 00 00 00 00 00 00 00 00 00 00 00 00 00 00 00 00 00 00 00 07 29 28 03 20 00 3C FF 42 00 24 03 78 F8 4E |...~.{.....................................................@.@.@.@.@...............u0u0u0u0u0u0u0u0u0u0u0..................................u0u0.?.....[..u0u0u0u0u0u0u0u0u0u0u0u0u0u0u0u0u0u0u0u0u0u0u0u0u0u0u0..................................)(. .<.B.$.x.N|
A 77 1129.648000 +236024us 8: 66 03 00 02 00 7C ED FC |f....|..|
B 78 1129.663000 +2241001us 253: 66 03 F8 00 6E 26 23 03 2B 01 18 96 49 18 04 05 F3 00 00 80 82 59 04 00 EB 00 D5 00 00 00 00 75 30 00 D5 01 5B 00 18 00 00 17 08 1C 05 34 BE 20 02 00 23 04 A1 00 4D 00 3E 75 30 75 30 01 BD 00 4A 00 26 00 59 08 59 03 26 06 BB 75 30 75 30 00 2C 00 3E 00 54 04 7E 05 46 05 DC 00 0A 00 00 01 76 03 DE 00 00 CC EF 00 14 01 14 01 FD 00 E6 00 EB 01 04 00 C8 00 B4 01 18 FB 02 FB 02 00 0F 00 1E D9 32 00 00 C8 23 02 26 00 32 01 2C 00 1D 00 D5 75 30 75 30 01 00 01 00 01 00 01 00 01 00 01 00 00 00 00 3F 00 3F 00 00 00 01 29 09 29 09 29 09 29 09 29 09 29 09 00 01 00 01 00 D5 00 C5 00 DC 00 D4 00 C7 00 EF 00 D5 00 D5 00 3C 00 00 00 00 00 00 00 00 00 00 00 64 00 64 00 01 00 07 00 08 00 09 00 0A 00 0B 00 01 00 01 64 00 64 00 64 00 64 00 64 00 64 00 64 00 64 00 A6 EB |f...n&#.+...I........Y.........u0...[........4. ..#...M.>u0u0...J.&.Y.Y.&..u0u0.,.>.T.~.F.......v.................................2...#.&.2.,....u0u0...............?.?....).).).).).)......................<...........d.d................d.d.d.d.d.d.d.d...|
A 79 1130.148000 +493003us 8: 66 03 00 7E 00 7A AC 26 |f..~.z.&|
B 80 1130.165000 +241001us 24: 66 03 F4 00 20 00 E6 00 E6 00 D2 00 D2 00 E1 00 D2 00 D7 00 D7 00 D7 00 |f... ...................|
B 81 1130.195000 +6296us 225: DC 00 E6 00 F0 00 F0 00 F0 00 E6 00 E6 01 DE 02 0E 02 11 02 0A 02 1A 02 11 02 0A 02 04 00 1E 40 1E 40 1E 40 1E 40 1E 40 1E 00 00 00 00 00 C5 00 DC 00 D4 00 C7 00 EF 75 30 75 30 75 30 75 30 75 30 75 30 75 30 75 30 75 30 75 30 75 30 01 00 01 00 01 00 01 00 01 00 00 00 00 00 00 00 00 00 00 00 00 00 00 00 00 00 00 00 00 00 00 00 01 DF 75 30 75 30 02 3F 02 17 01 F6 02 5B 01 E5 75 30 75 30 75 30 75 30 75 30 75 30 75 30 75 30 75 30 75 30 75 30 75 30 75 30 75 30 75 30 75 30 75 30 75 30 75 30 75 30 75 30 75 30 75 30 75 30 75 30 75 30 75 30 00 02 00 02 00 02 00 02 00 02 00 00 00 00 00 00 00 00 00 00 00 00 00 00 00 00 00 00 00 00 00 00 00 07 29 28 03 20 00 3C FF 42 00 24 B4 CB |...............................@.@.@.@.@...............u0u0u0u0u0u0u0u0u0u0u0..................................u0u0.?.....[..u0u0u0u0u0u0u0u0u0u0u0u0u0u0u0u0u0u0u0u0u0u0u0u0u0u0u0..................................)(. .<.B.$..|
A 82 1130.648000 +493004us 8: 67 03 00 02 00 7C EC 2D |g....|.-|
A 83 1131.148000 +493025us 8: 68 03 00 02 00 7C EC D2 |h....|..|
A 84 1131.648000 +493023us 253: 00 10 00 04 00 7A F4 03 2B 01 18 96 49 18 04 05 F3 00 00 80 82 59 04 00 EB 00 D5 00 00 00 00 75 30 00 D5 01 5C 00 18 00 00 17 08 1F 05 34 BE 20 02 00 24 04 A2 00 4D 00 3D 75 30 75 30 01 BE 00 49 00 27 00 59 08 5C 03 20 06 D5 75 30 75 30 00 2C 00 3E 00 54 04 7E 05 46 05 DC 00 0A 00 00 01 76 03 DE 00 00 CC EF 00 14 01 15 01 FC 00 E6 00 EB 01 04 00 C8 00 B4 01 18 FB 02 FB 02 00 0F 00 1E 00 32 00 00 00 23 02 26 00 32 01 2C 00 1D 00 D5 75 30 75 30 01 00 01 00 01 00 01 00 01 00 01 00 00 00 00 3F 00 3F 00 00 00 01 29 09 29 09 29 09 29 09 29 09 29 09 00 01 00 01 00 D5 00 C5 00 DC 00 D4 00 C7 00 EF 00 D5 00 D5 00 3C 00 00 00 00 00 00 00 00 00 00 00 64 00 64 00 01 00 07 00 08 00 09 00 0A 00 0B 00 01 00 01 64 00 64 00 64 00 64 00 64 00 64 00 64 00 64 00 FB 8A |.....z..+...I........Y.........u0...\........4. ..$...M.=u0u0...I.'.Y.\. ..u0u0.,.>.T.~.F.......v.................................2...#.&.2.,....u0u0...............?.?....).).).).).)......................<...........d.d................d.d.d.d.d.d.d.d...|
A 85 1132.148000 +238024us 42: 00 10 00 7E 00 7B F6 00 00 00 E6 00 E6 00 D2 00 D2 00 E1 00 D2 00 D7 00 D7 00 D7 00 DC 00 E6 00 F0 00 F0 00 F0 00 E6 00 E6 01 |...~.{....................................|
A 86 1132.196000 +6469us 213: DE 02 0E 02 11 02 0A 02 1A 02 11 02 0A 02 04 00 1E 40 1E 40 1E 40 1E 40 1E 40 1E 00 00 00 00 00 C5 00 DC 00 D4 00 C7 00 EF 75 30 75 30 75 30 75 30 75 30 75 30 75 30 75 30 75 30 75 30 75 30 01 00 01 00 01 00 01 00 01 00 00 00 00 00 00 00 00 00 00 00 00 00 00 00 00 00 00 00 00 00 00 00 01 DE 75 30 75 30 02 3F 02 17 01 F6 02 5B 01 E5 75 30 75 30 75 30 75 30 75 30 75 30 75 30 75 30 75 30 75 30 75 30 75 30 75 30 75 30 75 30 75 30 75 30 75 30 75 30 75 30 75 30 75 30 75 30 75 30 75 30 75 30 75 30 00 02 00 02 00 02 00 02 00 02 00 00 00 00 00 00 00 00 00 00 00 00 00 00 00 00 00 00 00 00 00 00 00 07 00 28 03 20 00 3C FF 42 00 24 03 78 65 ED |.................@.@.@.@.@...............u0u0u0u0u0u0u0u0u0u0u0..................................u0u0.?.....[..u0u0u0u0u0u0u0u0u0u0u0u0u0u0u0u0u0u0u0u0u0u0u0u0u0u0u0...................................(. .<.B.$.xe.|
A 87 1132.647000 +236020us 8: 66 03 00 02 00 7C ED FC |f....|..|
B 88 1132.663000 +2241000us 253: 66 03 F8 00 6E 26 23 03 2B 01 18 96 49 18 04 05 F3 00 00 80 82 59 04 00 EB 00 D5 00 00 00 00 75 30 00 D5 01 5C 00 18 00 00 17 08 1F 05 34 BE 20 02 00 24 04 A2 00 4D 00 3D 75 30 75 30 01 BE 00 49 00 27 00 59 08 5C 03 20 06 D5 75 30 75 30 00 2C 00 3E 00 54 04 7E 05 46 05 DC 00 0A 00 00 01 76 03 DE 00 00 CC EF 00 14 01 15 01 FC 00 E6 00 EB 01 04 00 C8 00 B4 01 18 FB 02 FB 02 00 0F 00 1E 00 32 00 00 00 23 02 26 00 32 01 2C 00 1D 00 D5 75 30 75 30 01 00 01 00 01 00 01 00 01 00 01 00 00 00 00 3F 00 3F 00 00 00 01 29 09 29 09 29 09 29 09 29 09 29 09 00 01 00 01 00 D5 00 C5 00 DC 00 D4 00 C7 00 EF 00 D5 00 D5 00 3C 00 00 00 00 00 00 00 00 00 00 00 64 00 64 00 01 00 07 00 08 00 09 00 0A 00 0B 00 01 00 01 64 00 64 00 64 00 64 00 64 00 64 00 64 00 64 00 70 A8 |f...n&#.+...I........Y.........u0...\........4. ..$...M.=u0u0...I.'.Y.\. ..u0u0.,.>.T.~.F.......v.................................2...#.&.2.,....u0u0...............?.?....).).).).).)......................<...........d.d................d.d.d.d.d.d.d.d.p.|
A 89 1133.147000 +492021us 8: 66 03 00 7E 00 7A AC 26 |f..~.z.&|
B 90 1133.165000 +241000us 249: 66 03 F4 00 00 00 E6 00 E6 00 D2 00 D2 00 E1 00 D2 00 D7 00 D7 00 D7 00 DC 00 E6 00 F0 00 F0 00 F0 00 E6 00 E6 01 DE 02 0E 02 11 02 0A 02 1A 02 11 02 0A 02 04 00 1E 40 1E 40 1E 40 1E 40 1E 40 1E 00 00 00 00 00 C5 00 DC 00 D4 00 C7 00 EF 75 30 75 30 75 30 75 30 75 30 75 30 75 30 75 30 75 30 75 30 75 30 01 00 01 00 01 00 01 00 01 00 00 00 00 00 00 00 00 00 00 00 00 00 00 00 00 00 00 00 00 00 00 00 01 DF 75 30 75 30 02 3F 02 17 01 F6 02 5B 01 E5 75 30 75 30 75 30 75 30 75 30 75 30 75 30 75 30 75 30 75 30 75 30 75 30 75 30 75 30 75 30 75 30 75 30 75 30 75 30 75 30 75 30 75 30 75 30 75 30 75 30 75 30 75 30 00 02 00 02 00 02 00 02 00 02 00 00 00 00 00 00 00 00 00 00 00 00 00 00 00 00 00 00 00 00 00 00 00 07 29 28 03 20 00 3C FF 42 00 24 3F 06 |f......................................................@.@.@.@.@...............u0u0u0u0u0u0u0u0u0u0u0..................................u0u0.?.....[..u0u0u0u0u0u0u0u0u0u0u0u0u0u0u0u0u0u0u0u0u0u0u0u0u0u0u0..................................)(. .<.B.$?.|
A 91 1133.647000 +492024us 8: 67 03 00 02 00 7C EC 2D |g....|.-|
A 92 1134.147000 +492023us 8: 68 03 00 02 00 7C EC D2 |h....|..|
A 93 1134.648000 +493936us 253: 00 10 00 04 00 7A F4 03 2B 01 18 96 49 18 04 05 F3 00 00 80 82 59 04 00 EB 00 D5 00 00 00 00 75 30 00 D5 01 5E 00 18 00 00 17 08 22 05 34 BE 20 02 00 24 04 A1 00 4D 00 3D 75 30 75 30 01 BD 00 48 00 29 00 59 08 5C 03 17 06 E9 75 30 75 30 00 2C 00 3E 00 54 04 7E 05 46 05 DC 00 0A 00 00 01 76 03 DE 00 00 CC EF 00 14 01 14 01 FD 00 E6 00 EB 01 04 00 C8 00 B4 01 18 FB 02 FB 02 00 0F 00 1E D9 32 00 00 C8 23 02 26 00 32 01 2C 00 1D 00 D5 75 30 75 30 01 00 01 00 01 00 01 00 01 00 01 00 00 00 00 3F 00 3F 00 00 00 01 29 09 29 09 29 09 29 09 29 09 29 09 00 01 00 01 00 D5 00 C5 00 DC 00 D4 00 C7 00 EF 00 D5 00 D5 00 3F 00 00 00 00 00 00 00 00 00 00 00 64 00 64 00 01 00 07 00 08 00 09 00 0A 00 0B 00 01 00 01 64 00 64 00 64 00 64 00 64 00 64 00 64 00 64 00 B8 5D |.....z..+...I........Y.........u0...^......".4. ..$...M.=u0u0...H.).Y.\....u0u0.,.>.T.~.F.......v.................................2...#.&.2.,....u0u0...............?.?....).).).).).)......................?...........d.d................d.d.d.d.d.d.d.d..]|
A 94 1135.147000 +238024us 255: 00 10 00 7E 00 7B F6 00 00 00 E6 00 E6 00 D2 00 D2 00 E1 00 D2 00 D7 00 D7 00 D7 00 DC 00 E6 00 F0 00 F0 00 F0 00 E6 00 E6 01 DE 02 0E 02 11 02 0A 02 1A 02 11 02 0A 02 04 00 1E 40 1E 40 1E 40 1E 40 1E 40 1E 00 00 00 00 00 C5 00 DC 00 D4 00 C7 00 EF 75 30 75 30 75 30 75 30 75 30 75 30 75 30 75 30 75 30 75 30 75 30 01 00 01 00 01 00 01 00 01 00 00 00 00 00 00 00 00 00 00 00 00 00 00 00 00 00 00 00 00 00 00 00 01 DE 75 30 75 30 02 3F 02 17 01 F6 02 5B 01 E5 75 30 75 30 75 30 75 30 75 30 75 30 75 30 75 30 75 30 75 30 75 30 75 30 75 30 75 30 75 30 75 30 75 30 75 30 75 30 75 30 75 30 75 30 75 30 75 30 75 30 75 30 75 30 00 02 00 02 00 02 00 02 00 02 00 00 00 00 00 00 00 00 00 00 00 00 00 00 00 00 00 00 00 00 00 00 00 07 29 28 03 20 00 3C FF 42 00 24 03 78 F8 4E |...~.{.....................................................@.@.@.@.@...............u0u0u0u0u0u0u0u0u0u0u0..................................u0u0.?.....[..u0u0u0u0u0u0u0u0u0u0u0u0u0u0u0u0u0u0u0u0u0u0u0u0u0u0u0..................................)(. .<.B.$.x.N|
A 95 1135.647000 +236024us 8: 66 03 00 02 00 7C ED FC |f....|..|
B 96 1135.662000 +2240001us 253: 66 03 F8 00 6E 26 23 03 2B 01 18 96 49 18 04 05 F3 00 00 80 82 59 04 00 EB 00 D5 00 00 00 00 75 30 00 D5 01 5E 00 18 00 00 17 08 22 05 34 BE 20 02 00 24 04 A1 00 4D 00 3D 75 30 75 30 01 BD 00 48 00 29 00 59 08 5C 03 17 06 E9 75 30 75 30 00 2C 00 3E 00 54 04 7E 05 46 05 DC 00 0A 00 00 01 76 03 DE 00 00 CC EF 00 14 01 14 01 FD 00 E6 00 EB 01 04 00 C8 00 B4 01 18 FB 02 FB 02 00 0F 00 1E D9 32 00 00 C8 23 02 26 00 32 01 2C 00 1D 00 D5 75 30 75 30 01 00 01 00 01 00 01 00 01 00 01 00 00 00 00 3F 00 3F 00 00 00 01 29 09 29 09 29 09 29 09 29 09 29 09 00 01 00 01 00 D5 00 C5 00 DC 00 D4 00 C7 00 EF 00 D5 00 D5 00 3F 00 00 00 00 00 00 00 00 00 00 00 64 00 64 00 01 00 07 00 08 00 09 00 0A 00 0B 00 01 00 01 64 00 64 00 64 00 64 00 64 00 64 00 64 00 64 00 33 7F |f...n&#.+...I........Y.........u0...^......".4. ..$...M.=u0u0...H.).Y.\....u0u0.,.>.T.~.F.......v.................................2...#.&.2.,....u0u0...............?.?....).).).).).)......................?...........d.d................d.d.d.d.d.d.d.d.3.|
A 97 1136.147000 +493003us 8: 66 03 00 7E 00 7A AC 26 |f..~.z.&|
B 98 1136.164000 +241001us 28: 66 03 F4 00 22 00 E6 00 E6 00 D2 00 D2 00 E1 00 D2 00 D7 00 D7 00 DC 00 DC 00 E6 00 |f...".......................|
B 99 1136.198000 +6395us 221: F0 00 F0 00 F0 00 E6 00 E6 01 DE 02 0E 02 11 02 0A 02 1A 02 11 02 0A 02 04 00 1E 40 1E 40 1E 40 1E 40 1E 40 1E 00 00 00 00 00 C5 00 DC 00 D4 00 C7 00 EF 75 30 75 30 75 30 75 30 75 30 75 30 75 30 75 30 75 30 75 30 75 30 01 00 01 00 01 00 01 00 01 00 00 00 00 00 00 00 00 00 00 00 00 00 00 00 00 00 00 00 00 00 00 00 01 DF 75 30 75 30 02 3F 02 17 01 F6 02 5B 01 E5 75 30 75 30 75 30 75 30 75 30 75 30 75 30 75 30 75 30 75 30 75 30 75 30 75 30 75 30 75 30 75 30 75 30 75 30 75 30 75 30 75 30 75 30 75 30 75 30 75 30 75 30 75 30 00 02 00 02 00 02 00 02 00 02 00 00 00 00 00 00 00 00 00 00 00 00 00 00 00 00 00 00 00 00 00 00 00 07 29 28 03 20 00 3C FF 42 00 24 94 06 |...........................@.@.@.@.@...............u0u0u0u0u0u0u0u0u0u0u0..................................u0u0.?.....[..u0u0u0u0u0u0u0u0u0u0u0u0u0u0u0u0u0u0u0u0u0u0u0u0u0u0u0..................................)(. .<.B.$..|
A 100 1136.647000 +493024us 8: 67 03 00 02 00 7C EC 2D |g....|.-|
A 101 1137.147000 +493003us 8: 68 03 00 02 00 7C EC D2 |h....|..|
A 102 1137.648000 +494020us 253: 00 10 00 04 00 7A F4 03 2B 01 18 96 49 18 04 05 F3 00 00 80 82 59 04 00 EB 00 D5 00 00 00 00 75 30 00 D5 01 5F 00 18 00 00 17 08 25 05 34 BE 20 02 00 26 04 5C 00 4D 00 3B 75 30 75 30 01 B9 00 45 00 30 00 59 08 5E 02 F9 07 2E 75 30 75 30 00 2C 00 3E 00 54 04 7E 05 46 05 DC 00 0A 00 00 01 76 03 DE 00 00 CC EF 00 14 00 E7 02 28 00 E6 00 EB 01 04 00 C8 00 B4 01 18 FB 02 FB 02 00 0F 00 1E 00 32 00 00 00 23 02 26 00 32 01 2C 00 1D 00 D5 75 30 75 30 01 00 01 00 01 00 01 00 01 00 01 00 00 00 00 3F 00 3F 00 00 00 01 29 09 29 09 29 09 29 09 29 09 29 09 00 01 00 01 00 D5 00 C5 00 DC 00 D4 00 C7 00 EF 00 D5 00 D5 00 50 00 00 00 00 00 00 00 00 00 00 00 64 00 64 00 01 00 07 00 08 00 09 00 0A 00 0B 00 01 00 01 64 00 64 00 64 00 64 00 64 00 64 00 64 00 64 00 53 AF |.....z..+...I........Y.........u0..._......%.4. ..&.\.M.;u0u0...E.0.Y.^....u0u0.,.>.T.~.F.......v...........(.....................2...#.&.2.,....u0u0...............?.?....).).).).).)......................P...........d.d................d.d.d.d.d.d.d.d.S.|
A 103 1138.147000 +238023us 45: 00 10 00 7E 00 7B F6 00 00 00 E6 00 E6 00 D2 00 D2 00 E1 00 D2 00 D7 00 D7 00 D7 00 DC 00 E6 00 F0 00 F0 00 F0 00 E6 00 E6 01 DE 02 0E |...~.{.......................................|
A 104 1138.199000 +6490us 210: 02 11 02 0A 02 1A 02 11 02 0A 02 04 00 1E 40 1E 40 1E 40 1E 40 1E 40 1E 00 00 00 00 00 C5 00 DC 00 D4 00 C7 00 EF 75 30 75 30 75 30 75 30 75 30 75 30 75 30 75 30 75 30 75 30 75 30 01 00 01 00 01 00 01 00 01 00 00 00 00 00 00 00 00 00 00 00 00 00 00 00 00 00 00 00 00 00 00 00 01 DE 75 30 75 30 02 3F 02 17 01 F6 02 5B 01 E5 75 30 75 30 75 30 75 30 75 30 75 30 75 30 75 30 75 30 75 30 75 30 75 30 75 30 75 30 75 30 75 30 75 30 75 30 75 30 75 30 75 30 75 30 75 30 75 30 75 30 75 30 75 30 00 02 00 02 00 02 00 02 00 02 00 00 00 00 00 00 00 00 00 00 00 00 00 00 00 00 00 00 00 00 00 00 00 07 00 28 03 20 00 3C FF 42 00 24 03 78 65 ED |..............@.@.@.@.@...............u0u0u0u0u0u0u0u0u0u0u0..................................u0u0.?.....[..u0u0u0u0u0u0u0u0u0u0u0u0u0u0u0u0u0u0u0u0u0u0u0u0u0u0u0...................................(. .<.B.$.xe.|
A 105 1138.647000 +236023us 8: 66 03 00 02 00 7C ED FC |f....|..|
B 106 1138.662000 +2241000us 253: 66 03 F8 00 6E 26 23 03 2B 01 18 96 49 18 04 05 F3 00 00 80 82 59 04 00 EB 00 D5 00 00 00 00 75 30 00 D5 01 5F 00 18 00 00 17 08 25 05 34 BE 20 02 00 26 04 5C 00 4D 00 3B 75 30 75 30 01 B9 00 45 00 30 00 59 08 5E 02 F9 07 2E 75 30 75 30 00 2C 00 3E 00 54 04 7E 05 46 05 DC 00 0A 00 00 01 76 03 DE 00 00 CC EF 00 14 00 E7 02 28 00 E6 00 EB 01 04 00 C8 00 B4 01 18 FB 02 FB 02 00 0F 00 1E 00 32 00 00 00 23 02 26 00 32 01 2C 00 1D 00 D5 75 30 75 30 01 00 01 00 01 00 01 00 01 00 01 00 00 00 00 3F 00 3F 00 00 00 01 29 09 29 09 29 09 29 09 29 09 29 09 00 01 00 01 00 D5 00 C5 00 DC 00 D4 00 C7 00 EF 00 D5 00 D5 00 50 00 00 00 00 00 00 00 00 00 00 00 64 00 64 00 01 00 07 00 08 00 09 00 0A 00 0B 00 01 00 01 64 00 64 00 64 00 64 00 64 00 64 00 64 00 64 00 D8 8D |f...n&#.+...I........Y.........u0..._......%.4. ..&.\.M.;u0u0...E.0.Y.^....u0u0.,.>.T.~.F.......v...........(.....................2...#.&.2.,....u0u0...............?.?....).).).).).)......................P...........d.d................d.d.d.d.d.d.d.d...|
A 107 1139.147000 +493023us 8: 66 03 00 7E 00 7A AC 26 |f..~.z.&|
B 108 1139.164000 +241000us 249: 66 03 F4 00 00 00 E6 00 E6 00 D2 00 D2 00 E1 00 D2 00 D7 00 D7 00 DC 00 DC 00 E6 00 F0 00 F0 00 F0 00 E6 00 E6 01 DE 02 0E 02 11 02 0A 02 1A 02 11 02 0A 02 04 00 1E 40 1E 40 1E 40 1E 40 1E 40 1E 00 00 00 00 00 C5 00 DC 00 D4 00 C7 00 EF 75 30 75 30 75 30 75 30 75 30 75 30 75 30 75 30 75 30 75 30 75 30 01 00 01 00 01 00 01 00 01 00 00 00 00 00 00 00 00 00 00 00 00 00 00 00 00 00 00 00 00 00 00 00 01 DF 75 30 75 30 02 3F 02 17 01 F6 02 5B 01 E5 75 30 75 30 75 30 75 30 75 30 75 30 75 30 75 30 75 30 75 30 75 30 75 30 75 30 75 30 75 30 75 30 75 30 75 30 75 30 75 30 75 30 75 30 75 30 75 30 75 30 75 30 75 30 00 02 00 02 00 02 00 02 00 02 00 00 00 00 00 00 00 00 00 00 00 00 00 00 00 00 00 00 00 00 00 00 00 07 29 28 03 20 00 3C FF 42 00 24 C6 73 |f......................................................@.@.@.@.@...............u0u0u0u0u0u0u0u0u0u0u0..................................u0u0.?.....[..u0u0u0u0u0u0u0u0u0u0u0u0u0u0u0u0u0u0u0u0u0u0u0u0u0u0u0..................................)(. .<.B.$.s|
A 109 1139.647000 +493023us 8: 67 03 00 02 00 7C EC 2D |g....|.-|
A 110 1140.146000 +492066us 8: 68 03 00 02 00 7C EC D2 |h....|..|
A 111 1140.647000 +493024us 253: 00 10 00 04 00 7A F4 03 2B 01 18 96 49 18 04 05 F3 00 00 80 82 59 04 00 EB 00 D5 00 00 00 00 75 30 00 D5 01 5F 00 18 00 00 17 08 28 05 34 BE 20 02 00 26 04 45 00 4D 00 3B 75 30 75 30 01 B9 00 44 00 34 00 59 08 58 02 E9 07 1C 75 30 75 30 00 2C 00 3E 00 54 04 7E 05 46 05 DC 00 0A 00 00 01 76 03 DE 00 00 CC EF 00 14 00 D9 02 37 00 E6 00 EB 01 04 00 C8 00 B4 01 18 FB 02 FB 02 00 0F 00 1E D9 32 00 00 C8 23 02 26 00 32 01 2C 00 1D 00 D5 75 30 75 30 01 00 01 00 01 00 01 00 01 00 01 00 00 00 00 3F 00 3F 00 00 00 01 29 09 29 09 29 09 29 09 29 09 29 09 00 01 00 01 00 D5 00 C5 00 DC 00 D4 00 C7 00 EF 00 D5 00 D5 00 50 00 00 00 00 00 00 00 00 00 00 00 64 00 64 00 01 00 07 00 08 00 09 00 0A 00 0B 00 01 00 01 64 00 64 00 64 00 64 00 64 00 64 00 64 00 64 00 B8 A5 |.....z..+...I........Y.........u0..._......(.4. ..&.E.M.;u0u0...D.4.Y.X....u0u0.,.>.T.~.F.......v...........7.....................2...#.&.2.,....u0u0...............?.?....).).).).).)......................P...........d.d................d.d.d.d.d.d.d.d...|
A 112 1141.147000 +238023us 255: 00 10 00 7E 00 7B F6 00 00 00 E6 00 E6 00 D2 00 D2 00 E1 00 D2 00 D7 00 D7 00 D7 00 DC 00 E6 00 F0 00 F0 00 F0 00 E6 00 E6 01 DE 02 0E 02 11 02 0A 02 1A 02 11 02 0A 02 04 00 1E 40 1E 40 1E 40 1E 40 1E 40 1E 00 00 00 00 00 C5 00 DC 00 D4 00 C7 00 EF 75 30 75 30 75 30 75 30 75 30 75 30 75 30 75 30 75 30 75 30 75 30 01 00 01 00 01 00 01 00 01 00 00 00 00 00 00 00 00 00 00 00 00 00 00 00 00 00 00 00 00 00 00 00 01 DE 75 30 75 30 02 3F 02 17 01 F6 02 5B 01 E5 75 30 75 30 75 30 75 30 75 30 75 30 75 30 75 30 75 30 75 30 75 30 75 30 75 30 75 30 75 30 75 30 75 30 75 30 75 30 75 30 75 30 75 30 75 30 75 30 75 30 75 30 75 30 00 02 00 02 00 02 00 02 00 02 00 00 00 00 00 00 00 00 00 00 00 00 00 00 00 00 00 00 00 00 00 00 00 07 29 28 03 20 00 3C FF 42 00 24 03 78 F8 4E |...~.{.....................................................@.@.@.@.@...............u0u0u0u0u0u0u0u0u0u0u0..................................u0u0.?.....[..u0u0u0u0u0u0u0u0u0u0u0u0u0u0u0u0u0u0u0u0u0u0u0u0u0u0u0..................................)(. .<.B.$.x.N|
A 113 1141.646000 +236010us 8: 66 03 00 02 00 7C ED FC |f....|..|
B 114 1141.662000 +2241000us 253: 66 03 F8 00 6E 26 23 03 2B 01 18 96 49 18 04 05 F3 00 00 80 82 59 04 00 EB 00 D5 00 00 00 00 75 30 00 D5 01 5F 00 18 00 00 17 08 28 05 34 BE 20 02 00 26 04 45 00 4D 00 3B 75 30 75 30 01 B9 00 44 00 34 00 59 08 58 02 E9 07 1C 75 30 75 30 00 2C 00 3E 00 54 04 7E 05 46 05 DC 00 0A 00 00 01 76 03 DE 00 00 CC EF 00 14 00 D9 02 37 00 E6 00 EB 01 04 00 C8 00 B4 01 18 FB 02 FB 02 00 0F 00 1E D9 32 00 00 C8 23 02 26 00 32 01 2C 00 1D 00 D5 75 30 75 30 01 00 01 00 01 00 01 00 01 00 01 00 00 00 00 3F 00 3F 00 00 00 01 29 09 29 09 29 09 29 09 29 09 29 09 00 01 00 01 00 D5 00 C5 00 DC 00 D4 00 C7 00 EF 00 D5 00 D5 00 50 00 00 00 00 00 00 00 00 00 00 00 64 00 64 00 01 00 07 00 08 00 09 00 0A 00 0B 00 01 00 01 64 00 64 00 64 00 64 00 64 00 64 00 64 00 64 00 33 87 |f...n&#.+...I........Y.........u0..._......(.4. ..&.E.M.;u0u0...D.4.Y.X....u0u0.,.>.T.~.F.......v...........7.....................2...#.&.2.,....u0u0...............?.?....).).).).).)......................P...........d.d................d.d.d.d.d.d.d.d.3.|
A 115 1142.146000 +492024us 8: 66 03 00 7E 00 7A AC 26 |f..~.z.&|
B 116 1142.164000 +241001us 31: 66 03 F4 00 20 00 E6 00 E6 00 D2 00 D2 00 E1 00 D2 00 D7 00 D7 00 D7 00 DC 00 E6 00 F0 00 F0 |f... ..........................|
B 117 1142.201000 +6336us 218: 00 F0 00 E6 00 E6 01 DE 02 0E 02 11 02 0A 02 1A 02 11 02 0A 02 04 00 1E 40 1E 40 1E 40 1E 40 1E 40 1E 00 00 00 00 00 C5 00 DC 00 D4 00 C7 00 EF 75 30 75 30 75 30 75 30 75 30 75 30 75 30 75 30 75 30 75 30 75 30 01 00 01 00 01 00 01 00 01 00 00 00 00 00 00 00 00 00 00 00 00 00 00 00 00 00 00 00 00 00 00 00 01 DF 75 30 75 30 02 3F 02 17 01 F6 02 5B 01 E5 75 30 75 30 75 30 75 30 75 30 75 30 75 30 75 30 75 30 75 30 75 30 75 30 75 30 75 30 75 30 75 30 75 30 75 30 75 30 75 30 75 30 75 30 75 30 75 30 75 30 75 30 75 30 00 02 00 02 00 02 00 02 00 02 00 00 00 00 00 00 00 00 00 00 00 00 00 00 00 00 00 00 00 00 00 00 00 07 29 28 03 20 00 3C FF 42 00 24 B4 CB |........................@.@.@.@.@...............u0u0u0u0u0u0u0u0u0u0u0..................................u0u0.?.....[..u0u0u0u0u0u0u0u0u0u0u0u0u0u0u0u0u0u0u0u0u0u0u0u0u0u0u0..................................)(. .<.B.$..|
A 118 1142.646000 +492022us 8: 67 03 00 02 00 7C EC 2D |g....|.-|
A 119 1143.146000 +493004us 8: 68 03 00 02 00 7C EC D2 |h....|..|
A 120 1143.647000 +494023us 253: 00 10 00 04 00 7A F4 03 2B 01 18 96 49 18 04 05 F3 00 00 80 82 59 04 00 EB 00 D5 00 00 00 00 75 30 00 D5 01 60 00 18 00 00 17 08 2B 05 34 BE 20 02 00 27 04 39 00 4E 00 39 75 30 75 30 01 B9 00 43 00 3A 00 5C 08 4F 02 D7 07 43 75 30 75 30 00 2C 00 3E 00 54 04 7E 05 46 05 DC 00 0A 00 00 01 76 03 DE 00 00 CC EF 00 14 00 D1 02 3E 00 E6 00 EB 01 04 00 C8 00 B4 01 18 FB 02 FB 02 00 0F 00 1E 00 32 00 00 00 23 02 26 00 32 01 2C 00 1D 00 D5 75 30 75 30 01 00 01 00 01 00 01 00 01 00 01 00 00 00 00 3F 00 3F 00 00 00 01 29 09 29 09 29 09 29 09 29 09 29 09 00 01 00 01 00 D5 00 C5 00 DC 00 D4 00 C7 00 EF 00 D5 00 D5 00 50 00 00 00 00 00 00 00 00 00 00 00 64 00 64 00 01 00 07 00 08 00 09 00 0A 00 0B 00 01 00 01 64 00 64 00 64 00 64 00 64 00 64 00 64 00 64 00 0E 71 |.....z..+...I........Y.........u0...`......+.4. ..'.9.N.9u0u0...C.:.\.O...Cu0u0.,.>.T.~.F.......v...........>.....................2...#.&.2.,....u0u0...............?.?....).).).).).)......................P...........d.d................d.d.d.d.d.d.d.d..q|
A 121 1144.146000 +238003us 49: 00 10 00 7E 00 7B F6 00 00 00 E6 00 E6 00 D2 00 D2 00 E1 00 D2 00 D7 00 D7 00 D7 00 DC 00 E6 00 F0 00 F0 00 F0 00 E6 00 E6 01 DE 02 0E 02 11 02 0A |...~.{...........................................|
A 122 1144.202000 +6497us 206: 02 1A 02 11 02 0A 02 04 00 1E 40 1E 40 1E 40 1E 40 1E 40 1E 00 00 00 00 00 C5 00 DC 00 D4 00 C7 00 EF 75 30 75 30 75 30 75 30 75 30 75 30 75 30 75 30 75 30 75 30 75 30 01 00 01 00 01 00 01 00 01 00 00 00 00 00 00 00 00 00 00 00 00 00 00 00 00 00 00 00 00 00 00 00 01 DE 75 30 75 30 02 3F 02 17 01 F6 02 5B 01 E5 75 30 75 30 75 30 75 30 75 30 75 30 75 30 75 30 75 30 75 30 75 30 75 30 75 30 75 30 75 30 75 30 75 30 75 30 75 30 75 30 75 30 75 30 75 30 75 30 75 30 75 30 75 30 00 02 00 02 00 02 00 02 00 02 00 00 00 00 00 00 00 00 00 00 00 00 00 00 00 00 00 00 00 00 00 00 00 07 00 28 03 20 00 3C FF 42 00 24 03 78 65 ED |..........@.@.@.@.@...............u0u0u0u0u0u0u0u0u0u0u0..................................u0u0.?.....[..u0u0u0u0u0u0u0u0u0u0u0u0u0u0u0u0u0u0u0u0u0u0u0u0u0u0u0...................................(. .<.B.$.xe.|
A 123 1144.646000 +236023us 8: 66 03 00 02 00 7C ED FC |f....|..|
B 124 1144.661000 +2240000us 253: 66 03 F8 00 6E 26 23 03 2B 01 18 96 49 18 04 05 F3 00 00 80 82 59 04 00 EB 00 D5 00 00 00 00 75 30 00 D5 01 60 00 18 00 00 17 08 2B 05 34 BE 20 02 00 27 04 39 00 4E 00 39 75 30 75 30 01 B9 00 43 00 3A 00 5C 08 4F 02 D7 07 43 75 30 75 30 00 2C 00 3E 00 54 04 7E 05 46 05 DC 00 0A 00 00 01 76 03 DE 00 00 CC EF 00 14 00 D1 02 3E 00 E6 00 EB 01 04 00 C8 00 B4 01 18 FB 02 FB 02 00 0F 00 1E 00 32 00 00 00 23 02 26 00 32 01 2C 00 1D 00 D5 75 30 75 30 01 00 01 00 01 00 01 00 01 00 01 00 00 00 00 3F 00 3F 00 00 00 01 29 09 29 09 29 09 29 09 29 09 29 09 00 01 00 01 00 D5 00 C5 00 DC 00 D4 00 C7 00 EF 00 D5 00 D5 00 50 00 00 00 00 00 00 00 00 00 00 00 64 00 64 00 01 00 07 00 08 00 09 00 0A 00 0B 00 01 00 01 64 00 64 00 64 00 64 00 64 00 64 00 64 00 64 00 85 53 |f...n&#.+...I........Y.........u0...`......+.4. ..'.9.N.9u0u0...C.:.\.O...Cu0u0.,.>.T.~.F.......v...........>.....................2...#.&.2.,....u0u0...............?.?....).).).).).)......................P...........d.d................d.d.d.d.d.d.d.d..S|
A 125 1145.146000 +493002us 8: 66 03 00 7E 00 7A AC 26 |f..~.z.&|
B 126 1145.163000 +241000us 249: 66 03 F4 00 40 00 E6 00 E6 00 D2 00 D2 00 E1 00 D2 00 D7 00 D7 00 D7 00 DC 00 E6 00 F0 00 F0 00 F0 00 E6 00 E6 01 DE 02 0E 02 11 02 0A 02 1A 02 11 02 0A 02 04 00 1E 40 1E 40 1E 40 1E 40 1E 40 1E 00 00 00 00 00 C5 00 DC 00 D4 00 C7 00 EF 75 30 75 30 75 30 75 30 75 30 75 30 75 30 75 30 75 30 75 30 75 30 01 00 01 00 01 00 01 00 01 00 00 00 00 00 00 00 00 00 00 00 00 00 00 00 00 00 00 00 00 00 00 00 01 DF 75 30 75 30 02 3F 02 17 01 F6 02 5A 01 E5 75 30 75 30 75 30 75 30 75 30 75 30 75 30 75 30 75 30 75 30 75 30 75 30 75 30 75 30 75 30 75 30 75 30 75 30 75 30 75 30 75 30 75 30 75 30 75 30 75 30 75 30 75 30 00 02 00 02 00 02 00 02 00 02 00 00 00 00 00 00 00 00 00 00 00 00 00 00 00 00 00 00 00 00 00 00 00 07 29 28 03 20 00 3C FF 42 00 24 BD F0 |f...@..................................................@.@.@.@.@...............u0u0u0u0u0u0u0u0u0u0u0..................................u0u0.?.....Z..u0u0u0u0u0u0u0u0u0u0u0u0u0u0u0u0u0u0u0u0u0u0u0u0u0u0u0..................................)(. .<.B.$..|
A 127 1145.646000 +493007us 8: 67 03 00 02 00 7C EC 2D |g....|.-|
A 128 1146.146000 +493023us 8: 68 03 00 02 00 7C EC D2 |h....|..|
A 129 1146.647000 +494021us 253: 00 10 00 04 00 7A F4 03 2B 01 18 96 49 18 04 05 F3 00 00 80 82 59 04 00 EB 00 D5 00 00 00 00 75 30 00 D5 01 61 00 18 00 00 17 08 2E 05 34 BE 20 02 00 28 04 39 00 4E 00 38 75 30 75 30 01 B9 00 41 00 3E 00 5E 08 40 02 C5 07 6E 75 30 75 30 00 2C 00 3E 00 54 04 7E 05 46 05 DC 00 0A 00 00 01 76 03 DE 00 00 CC EF 00 14 00 D1 02 3E 00 E6 00 EB 01 04 00 C8 00 B4 01 18 FB 02 FB 02 00 0F 00 1E D9 32 00 00 C8 23 02 26 00 32 01 2C 00 1D 00 D5 75 30 75 30 01 00 01 00 01 00 01 00 01 00 01 00 00 00 00 3F 00 3F 00 00 00 01 29 09 29 09 29 09 29 09 29 09 29 09 00 01 00 01 00 D5 00 C5 00 DC 00 D4 00 C7 00 EF 00 D5 00 D5 00 50 00 00 00 00 00 00 00 00 00 00 00 64 00 64 00 01 00 07 00 08 00 09 00 0A 00 0B 00 01 00 01 64 00 64 00 64 00 64 00 64 00 64 00 64 00 64 00 B0 7A |.....z..+...I........Y.........u0...a........4. ..(.9.N.8u0u0...A.>.^.@...nu0u0.,.>.T.~.F.......v...........>.....................2...#.&.2.,....u0u0...............?.?....).).).).).)......................P...........d.d................d.d.d.d.d.d.d.d..z|
A 130 1147.146000 +238024us 255: 00 10 00 7E 00 7B F6 00 00 00 E6 00 E6 00 D2 00 D2 00 E1 00 D2 00 D7 00 D7 00 D7 00 DC 00 E6 00 F0 00 F0 00 F0 00 E6 00 E6 01 DE 02 0E 02 11 02 0A 02 1A 02 11 02 0A 02 04 00 1E 40 1E 40 1E 40 1E 40 1E 40 1E 00 00 00 00 00 C5 00 DC 00 D4 00 C7 00 EF 75 30 75 30 75 30 75 30 75 30 75 30 75 30 75 30 75 30 75 30 75 30 01 00 01 00 01 00 01 00 01 00 00 00 00 00 00 00 00 00 00 00 00 00 00 00 00 00 00 00 00 00 00 00 01 DE 75 30 75 30 02 3F 02 17 01 F6 02 5A 01 E5 75 30 75 30 75 30 75 30 75 30 75 30 75 30 75 30 75 30 75 30 75 30 75 30 75 30 75 30 75 30 75 30 75 30 75 30 75 30 75 30 75 30 75 30 75 30 75 30 75 30 75 30 75 30 00 02 00 02 00 02 00 02 00 02 00 00 00 00 00 00 00 00 00 00 00 00 00 00 00 00 00 00 00 00 00 00 00 07 29 28 03 20 00 3C FF 42 00 24 03 78 56 63 |...~.{.....................................................@.@.@.@.@...............u0u0u0u0u0u0u0u0u0u0u0..................................u0u0.?.....Z..u0u0u0u0u0u0u0u0u0u0u0u0u0u0u0u0u0u0u0u0u0u0u0u0u0u0u0..................................)(. .<.B.$.xVc|
A 131 1147.646000 +236004us 8: 66 03 00 02 00 7C ED FC |f....|..|
B 132 1147.661000 +2241001us 253: 66 03 F8 00 6E 26 23 03 2B 01 18 96 49 18 04 05 F3 00 00 80 82 59 04 00 EB 00 D5 00 00 00 00 75 30 00 D5 01 61 00 18 00 00 17 08 2E 05 34 BE 20 02 00 28 04 39 00 4E 00 38 75 30 75 30 01 B9 00 41 00 3E 00 5E 08 40 02 C5 07 6E 75 30 75 30 00 2C 00 3E 00 54 04 7E 05 46 05 DC 00 0A 00 00 01 76 03 DE 00 00 CC EF 00 14 00 D1 02 3E 00 E6 00 EB 01 04 00 C8 00 B4 01 18 FB 02 FB 02 00 0F 00 1E D9 32 00 00 C8 23 02 26 00 32 01 2C 00 1D 00 D5 75 30 75 30 01 00 01 00 01 00 01 00 01 00 01 00 00 00 00 3F 00 3F 00 00 00 01 29 09 29 09 29 09 29 09 29 09 29 09 00 01 00 01 00 D5 00 C5 00 DC 00 D4 00 C7 00 EF 00 D5 00 D5 00 50 00 00 00 00 00 00 00 00 00 00 00 64 00 64 00 01 00 07 00 08 00 09 00 0A 00 0B 00 01 00 01 64 00 64 00 64 00 64 00 64 00 64 00 64 00 64 00 3B 58 |f...n&#.+...I........Y.........u0...a........4. ..(.9.N.8u0u0...A.>.^.@...nu0u0.,.>.T.~.F.......v...........>.....................2...#.&.2.,....u0u0...............?.?....).).).).).)......................P...........d.d................d.d.d.d.d.d.d.d.;X|
A 133 1148.146000 +493023us 8: 66 03 00 7E 00 7A AC 26 |f..~.z.&|
B 134 1148.163000 +241000us 35: 66 03 F4 00 20 00 E6 00 E6 00 D2 00 D2 00 E1 00 D2 00 D7 00 D7 00 D7 00 DC 00 E6 00 F0 00 F0 00 F0 00 E6 |f... ..............................|
B 135 1148.204000 +6438us 214: 00 E6 01 DE 02 0E 02 11 02 0A 02 1A 02 11 02 0A 02 04 00 1E 40 1E 40 1E 40 1E 40 1E 40 1E 00 00 00 00 00 C5 00 DC 00 D4 00 C7 00 EF 75 30 75 30 75 30 75 30 75 30 75 30 75 30 75 30 75 30 75 30 75 30 01 00 01 00 01 00 01 00 01 00 00 00 00 00 00 00 00 00 00 00 00 00 00 00 00 00 00 00 00 00 00 00 01 DF 75 30 75 30 02 3F 02 17 01 F6 02 5A 01 E5 75 30 75 30 75 30 75 30 75 30 75 30 75 30 75 30 75 30 75 30 75 30 75 30 75 30 75 30 75 30 75 30 75 30 75 30 75 30 75 30 75 30 75 30 75 30 75 30 75 30 75 30 75 30 00 02 00 02 00 02 00 02 00 02 00 00 00 00 00 00 00 00 00 00 00 00 00 00 00 00 00 00 00 00 00 00 00 07 29 28 03 20 00 3C FF 42 00 24 23 E6 |....................@.@.@.@.@...............u0u0u0u0u0u0u0u0u0u0u0..................................u0u0.?.....Z..u0u0u0u0u0u0u0u0u0u0u0u0u0u0u0u0u0u0u0u0u0u0u0u0u0u0u0..................................)(. .<.B.$#.|
A 136 1148.646000 +493024us 8: 67 03 00 02 00 7C EC 2D |g....|.-|
A 137 1149.146000 +493004us 8: 68 03 00 02 00 7C EC D2 |h....|..|
A 138 1149.646000 +493021us 253: 00 10 00 04 00 7A F4 03 2B 01 18 96 49 18 04 05 F3 00 00 80 82 59 04 00 EB 00 D5 00 00 00 00 75 30 00 D5 01 62 00 18 00 00 17 08 31 05 34 BE 20 02 00 28 04 38 00 4E 00 37 75 30 75 30 01 B4 00 3E 00 44 00 61 08 37 02 AF 07 90 75 30 75 30 00 2C 00 3E 00 54 04 7E 05 46 05 DC 00 0A 00 00 01 76 03 DE 00 00 CC EF 00 14 00 D1 02 3F 00 E6 00 EB 01 04 00 C8 00 B4 01 18 FB 02 FB 02 00 0F 00 1E 00 32 00 00 00 23 02 26 00 32 01 2C 00 1D 00 D5 75 30 75 30 01 00 01 00 01 00 01 00 01 00 01 00 00 00 00 3F 00 3F 00 00 00 01 29 09 29 09 29 09 29 09 29 09 29 09 00 01 00 01 00 D5 00 C5 00 DC 00 D4 00 C7 00 EF 00 D5 00 D5 00 50 00 00 00 00 00 00 00 00 00 00 00 64 00 64 00 01 00 07 00 08 00 09 00 0A 00 0B 00 01 00 01 64 00 64 00 64 00 64 00 64 00 64 00 64 00 64 00 8F 53 |.....z..+...I........Y.........u0...b......1.4. ..(.8.N.7u0u0...>.D.a.7....u0u0.,.>.T.~.F.......v...........?.....................2...#.&.2.,....u0u0...............?.?....).).).).).)......................P...........d.d................d.d.d.d.d.d.d.d..S|
A 139 1150.146000 +238004us 52: 00 10 00 7E 00 7B F6 00 00 00 E6 00 E6 00 D2 00 D2 00 E1 00 D2 00 D7 00 D7 00 D7 00 DC 00 E6 00 F0 00 F0 00 F0 00 E6 00 E6 01 DE 02 0E 02 11 02 0A 02 1A 02 |...~.{..............................................|
A 140 1150.205000 +6465us 203: 11 02 0A 02 04 00 1E 40 1E 40 1E 40 1E 40 1E 40 1E 00 00 00 00 00 C5 00 DC 00 D4 00 C7 00 EF 75 30 75 30 75 30 75 30 75 30 75 30 75 30 75 30 75 30 75 30 75 30 01 00 01 00 01 00 01 00 01 00 00 00 00 00 00 00 00 00 00 00 00 00 00 00 00 00 00 00 00 00 00 00 01 DE 75 30 75 30 02 3F 02 17 01 F6 02 5A 01 E5 75 30 75 30 75 30 75 30 75 30 75 30 75 30 75 30 75 30 75 30 75 30 75 30 75 30 75 30 75 30 75 30 75 30 75 30 75 30 75 30 75 30 75 30 75 30 75 30 75 30 75 30 75 30 00 02 00 02 00 02 00 02 00 02 00 00 00 00 00 00 00 00 00 00 00 00 00 00 00 00 00 00 00 00 00 00 00 07 00 28 03 20 00 3C FF 42 00 24 03 78 CB C0 |.......@.@.@.@.@...............u0u0u0u0u0u0u0u0u0u0u0..................................u0u0.?.....Z..u0u0u0u0u0u0u0u0u0u0u0u0u0u0u0u0u0u0u0u0u0u0u0u0u0u0u0...................................(. .<.B.$.x..|
A 141 1150.645000 +236016us 8: 66 03 00 02 00 7C ED FC |f....|..|
B 142 1150.661000 +2241001us 253: 66 03 F8 00 6E 26 23 03 2B 01 18 96 49 18 04 05 F3 00 00 80 82 59 04 00 EB 00 D5 00 00 00 00 75 30 00 D5 01 62 00 18 00 00 17 08 31 05 34 BE 20 02 00 28 04 38 00 4E 00 37 75 30 75 30 01 B4 00 3E 00 44 00 61 08 37 02 AF 07 90 75 30 75 30 00 2C 00 3E 00 54 04 7E 05 46 05 DC 00 0A 00 00 01 76 03 DE 00 00 CC EF 00 14 00 D1 02 3F 00 E6 00 EB 01 04 00 C8 00 B4 01 18 FB 02 FB 02 00 0F 00 1E 00 32 00 00 00 23 02 26 00 32 01 2C 00 1D 00 D5 75 30 75 30 01 00 01 00 01 00 01 00 01 00 01 00 00 00 00 3F 00 3F 00 00 00 01 29 09 29 09 29 09 29 09 29 09 29 09 00 01 00 01 00 D5 00 C5 00 DC 00 D4 00 C7 00 EF 00 D5 00 D5 00 50 00 00 00 00 00 00 00 00 00 00 00 64 00 64 00 01 00 07 00 08 00 09 00 0A 00 0B 00 01 00 01 64 00 64 00 64 00 64 00 64 00 64 00 64 00 64 00 04 71 |f...n&#.+...I........Y.........u0...b......1.4. ..(.8.N.7u0u0...>.D.a.7....u0u0.,.>.T.~.F.......v...........?.....................2...#.&.2.,....u0u0...............?.?....).).).).).)......................P...........d.d................d.d.d.d.d.d.d.d..q|
A 143 1151.145000 +492024us 8: 66 03 00 7E 00 7A AC 26 |f..~.z.&|
B 144 1151.164000 +242002us 249: 66 03 F4 00 00 00 E6 00 E6 00 D2 00 D2 00 E1 00 D2 00 D7 00 D7 00 D7 00 DC 00 E6 00 F0 00 F0 00 F0 00 E6 00 E6 01 DE 02 0E 02 11 02 0A 02 1A 02 11 02 0A 02 04 00 1E 40 1E 40 1E 40 1E 40 1E 40 1E 00 00 00 00 00 C5 00 DC 00 D4 00 C7 00 EF 75 30 75 30 75 30 75 30 75 30 75 30 75 30 75 30 75 30 75 30 75 30 01 00 01 00 01 00 01 00 01 00 00 00 00 00 00 00 00 00 00 00 00 00 00 00 00 00 00 00 00 00 00 00 01 DF 75 30 75 30 02 3F 02 17 01 F6 02 5A 01 E5 75 30 75 30 75 30 75 30 75 30 75 30 75 30 75 30 75 30 75 30 75 30 75 30 75 30 75 30 75 30 75 30 75 30 75 30 75 30 75 30 75 30 75 30 75 30 75 30 75 30 75 30 75 30 00 02 00 02 00 02 00 02 00 02 00 00 00 00 00 00 00 00 00 00 00 00 00 00 00 00 00 00 00 00 00 00 00 07 29 28 03 20 00 3C FF 42 00 24 A8 2B |f......................................................@.@.@.@.@...............u0u0u0u0u0u0u0u0u0u0u0..................................u0u0.?.....Z..u0u0u0u0u0u0u0u0u0u0u0u0u0u0u0u0u0u0u0u0u0u0u0u0u0u0u0..................................)(. .<.B.$.+|
A 145 1151.645000 +491994us 8: 67 03 00 02 00 7C EC 2D |g....|.-|
A 146 1152.145000 +492023us 8: 68 03 00 02 00 7C EC D2 |h....|..|
A 147 1152.646000 +493022us 253: 00 10 00 04 00 7A F4 03 2B 01 18 96 49 18 04 05 F3 00 00 80 82 59 04 00 EB 00 D5 00 00 00 00 75 30 00 D5 01 62 00 18 00 00 17 08 34 05 34 BE 20 02 00 29 04 38 00 4E 00 36 75 30 75 30 01 AD 00 3D 00 4D 00 65 08 3C 02 93 07 96 75 30 75 30 00 2C 00 3E 00 54 04 7E 05 46 05 DC 00 0A 00 00 01 76 03 DE 00 00 CC EF 00 14 00 D1 02 3F 00 E6 00 EB 01 04 00 C8 00 B4 01 18 FB 02 FB 02 00 0F 00 1E D9 32 00 00 C8 23 02 26 00 32 01 2C 00 1D 00 D5 75 30 75 30 01 00 01 00 01 00 01 00 01 00 01 00 00 00 00 3F 00 3F 00 00 00 01 29 09 29 09 29 09 29 09 29 09 29 09 00 01 00 01 00 D5 00 C5 00 DC 00 D4 00 C7 00 EF 00 D5 00 D5 00 50 00 00 00 00 00 00 00 00 00 00 00 64 00 64 00 01 00 07 00 08 00 09 00 0A 00 0B 00 01 00 01 64 00 64 00 64 00 64 00 64 00 64 00 64 00 64 00 2A 76 |.....z..+...I........Y.........u0...b......4.4. ..).8.N.6u0u0...=.M.e.<....u0u0.,.>.T.~.F.......v...........?.....................2...#.&.2.,....u0u0...............?.?....).).).).).)......................P...........d.d................d.d.d.d.d.d.d.d.*v|
